T06CC 1183:896 SEGGER J-Link V6.10 Log File (0000ms, 24150ms total)
T06CC 1183:896 DLL Compiled: Sep 14 2016 16:45:07 (0000ms, 24150ms total)
T06CC 1183:896 Logging started @ 2017-02-02 15:34 (0000ms, 24150ms total)
T06CC 1184:726 JLINK_ExecCommand("Device = ATSAMD21J18A", ...). Device "ATSAMD21J18" selected.  returns 0x00 (0000ms, 24150ms total)
T06CC 1185:403 JLINK_ExecCommand("device = ATSAMD21J18A", ...). Device "ATSAMD21J18" selected.  returns 0x00 (0000ms, 24150ms total)
T06CC 1185:404 JLINK_GetHWStatus(...)  returns 0x00 (0000ms, 24150ms total)
T06CC 1185:404 JLINK_ClrRESET() (0000ms, 24150ms total)
T06CC 1185:404 JLINK_SetRESET() (0001ms, 24151ms total)
T06CC 1185:405 JLINK_ClrRESET() (0000ms, 24151ms total)
T06CC 1185:405 JLINK_ClrTCK()  returns 0x00 (0000ms, 24151ms total)
T06CC 1185:405 JLINK_SetRESET() (0000ms, 24151ms total)
T06CC 1185:405 JLINK_Clock()  returns 0x01 (0000ms, 24151ms total)
T06CC 1185:405 JLINK_TIF_Select(JLINKARM_TIF_SWD)  returns 0x00 (0001ms, 24152ms total)
T06CC 1185:406 JLINK_SetSpeed(50) (0000ms, 24152ms total)
T06CC 1185:406 JLINK_JTAG_StoreRaw(..., 0x108 Bits)  returns 0x00 (0000ms, 24152ms total)
T06CC 1185:406 JLINK_JTAG_GetU32(BitPos = 227) >0x108 TIF>  returns 0xFFFFFFFF (0001ms, 24153ms total)
T06CC 1185:407 JLINK_JTAG_StoreRaw(..., 0x08 Bits)  returns 0x00 (0000ms, 24153ms total)
T06CC 1185:407 JLINK_JTAG_StoreRaw(..., 0x03 Bits)  returns 0x08 (0000ms, 24153ms total)
T06CC 1185:407 JLINK_JTAG_StoreRaw(..., 0x28 Bits)  returns 0x0B (0000ms, 24153ms total)
T06CC 1185:407 JLINK_JTAG_GetU8(BitPos = 8) >0x33 TIF>  returns 0xFF (0000ms, 24153ms total)
T06CC 1185:407 JLINK_JTAG_GetU32(BitPos = 11)  returns 0xFFFFFFFF (0000ms, 24153ms total)
T06CC 1185:407 JLINK_JTAG_StoreRaw(..., 0x08 Bits)  returns 0x00 (0000ms, 24153ms total)
T06CC 1185:407 JLINK_JTAG_StoreRaw(..., 0x03 Bits)  returns 0x08 (0000ms, 24153ms total)
T06CC 1185:407 JLINK_JTAG_StoreRaw(..., 0x28 Bits)  returns 0x0B (0000ms, 24153ms total)
T06CC 1185:407 JLINK_JTAG_GetU8(BitPos = 8) >0x33 TIF>  returns 0xFF (0000ms, 24153ms total)
T06CC 1185:407 JLINK_JTAG_GetU32(BitPos = 11)  returns 0xFFFFFFFF (0000ms, 24153ms total)
T06CC 1185:407 JLINK_JTAG_StoreRaw(..., 0x08 Bits)  returns 0x00 (0000ms, 24153ms total)
T06CC 1185:407 JLINK_JTAG_StoreRaw(..., 0x03 Bits)  returns 0x08 (0000ms, 24153ms total)
T06CC 1185:407 JLINK_JTAG_StoreRaw(..., 0x02 Bits)  returns 0x0B (0000ms, 24153ms total)
T06CC 1185:407 JLINK_JTAG_StoreRaw(..., 0x28 Bits)  returns 0x0D (0000ms, 24153ms total)
T06CC 1185:407 JLINK_JTAG_GetU8(BitPos = 8) >0x35 TIF>  returns 0xDF (0001ms, 24154ms total)
T06CC 1185:408 JLINK_JTAG_StoreRaw(..., 0x08 Bits)  returns 0x00 (0000ms, 24154ms total)
T06CC 1185:408 JLINK_JTAG_StoreRaw(..., 0x03 Bits)  returns 0x08 (0000ms, 24154ms total)
T06CC 1185:408 JLINK_JTAG_StoreRaw(..., 0x28 Bits)  returns 0x0B (0000ms, 24154ms total)
T06CC 1185:408 JLINK_JTAG_GetU8(BitPos = 8) >0x33 TIF>  returns 0xFF (0000ms, 24154ms total)
T06CC 1185:408 JLINK_JTAG_GetU32(BitPos = 11)  returns 0xFFFFFFFF (0000ms, 24154ms total)
T06CC 1185:408 JLINK_WriteU32(0x41002100, 0x00000010) >0x108 TIF>Found SWD-DP with ID 0x0BC11477 >0x0D TIF> >0x28 TIF> >0x0D TIF> >0x28 TIF> >0x0D TIF> >0x28 TIF> >0x0D TIF> >0x28 TIF> >0x0D TIF> >0x21 TIF> >0x0D TIF> >0x28 TIF> >0x0D TIF> >0x28 TIF> >0x0D TIF> >0x28 TIF> >0x0D TIF> >0x21 TIF> >0x0D TIF> >0x21 TIF> >0x0D TIF> >0x28 TIF> >0x0D TIF> >0x28 TIF> >0x0D TIF> >0x28 TIF> >0x0D TIF> >0x28 TIF> >0x0D TIF> >0x28 TIF> >0x0D TIF> >0x28 TIF> >0x0D TIF> >0x21 TIF> >0x0D TIF> >0x21 TIF> >0x0D TIF>
 >0x28 TIF> >0x0D TIF> >0x28 TIF> >0x108 TIF>Found SWD-DP with ID 0x0BC11477 >0x0D TIF> >0x28 TIF> >0x0D TIF> >0x28 TIF> >0x0D TIF> >0x28 TIF> >0x0D TIF> >0x28 TIF> >0x0D TIF> >0x21 TIF> >0x0D TIF> >0x28 TIF> >0x0D TIF> >0x28 TIF> >0x0D TIF> >0x21 TIF> >0x0D TIF> >0x21 TIF> >0x0D TIF> >0x21 TIF>AP-IDR: 0x04770031, Type: AHB-AP >0x0D TIF> >0x28 TIF> >0x0D TIF> >0x28 TIF> >0x0D TIF> >0x28 TIF> >0x0D TIF> >0x21 TIF> >0x0D TIF> >0x21 TIF> >0x0D TIF> >0x28 TIF> >0x0D TIF> >0x21 TIF> >0x0D TIF> >0x21 TIF>
Found Cortex-M0 r0p1, Little endian. -- CPU_ReadMem(4 bytes @ 0xE000EDF0) -- CPU_ReadMem(4 bytes @ 0xE0002000)FPUnit: 4 code (BP) slots and 0 literal slots -- CPU_ReadMem(4 bytes @ 0xE000EDFC) -- CPU_ReadMem(4 bytes @ 0xE0001000) -- CPU_WriteMem(4 bytes @ 0xE0001000)CoreSight components:ROMTbl 0 @ 41003000 -- CPU_ReadMem(16 bytes @ 0x41003000) -- CPU_ReadMem(16 bytes @ 0xE00FFFF0) -- CPU_ReadMem(16 bytes @ 0xE00FFFE0)ROMTbl 0 [0]: 9F0FC000, CID: B105100D, PID: 000BB4C0 ROM TableROMTbl 1 @ E00FF000
 -- CPU_ReadMem(16 bytes @ 0xE00FF000) -- CPU_ReadMem(16 bytes @ 0xE000EFF0) -- CPU_ReadMem(16 bytes @ 0xE000EFE0)ROMTbl 1 [0]: FFF0F000, CID: B105E00D, PID: 000BB008 SCS -- CPU_ReadMem(16 bytes @ 0xE0001FF0) -- CPU_ReadMem(16 bytes @ 0xE0001FE0)ROMTbl 1 [1]: FFF02000, CID: B105E00D, PID: 000BB00A DWT -- CPU_ReadMem(16 bytes @ 0xE0002FF0) -- CPU_ReadMem(16 bytes @ 0xE0002FE0)ROMTbl 1 [2]: FFF03000, CID: B105E00D, PID: 000BB00B FPB -- CPU_ReadMem(16 bytes @ 0x41006FF0)
 -- CPU_ReadMem(16 bytes @ 0x41006FE0)ROMTbl 0 [1]: 00003000, CID: B105900D, PID: 001BB932 MTB-M0+ -- CPU is running -- CPU_WriteMem(4 bytes @ 0x41002100)  returns 0x00 (0028ms, 24182ms total)
T06CC 1185:436 JLINK_ReadMem (0x41002101, 0x0001 Bytes, ...) -- CPU is running -- CPU_ReadMem(1 bytes @ 0x41002101) - Data: 00  returns 0x00 (0001ms, 24183ms total)
T06CC 1185:637 JLINK_ReadMem (0x41002101, 0x0001 Bytes, ...) -- CPU is running -- CPU_ReadMem(1 bytes @ 0x41002101) - Data: 01  returns 0x00 (0000ms, 24183ms total)
T06CC 1185:637 JLINK_ExecCommand("ProjectFile = C:\git\ER4_Accordeur\projet\TP-info2\jlink.config", ...).   returns 0x00 (0001ms, 24184ms total)
T06CC 1186:192 JLINK_ExecCommand("Device = ATSAMD21J18A", ...). Device "ATSAMD21J18" selected.  returns 0x00 (0001ms, 24185ms total)
T06CC 1186:193 JLINK_TIF_Select(JLINKARM_TIF_SWD)  returns 0x00 (0000ms, 24185ms total)
T06CC 1186:193 JLINK_SetSpeed(4000) (0000ms, 24185ms total)
T06CC 1186:193 JLINK_ResetPullsRESET(OFF) (0000ms, 24185ms total)
T06CC 1186:193 JLINK_Connect() >0x108 TIF>Found SWD-DP with ID 0x0BC11477 >0x0D TIF> >0x28 TIF> >0x0D TIF> >0x28 TIF> >0x0D TIF> >0x28 TIF> >0x0D TIF> >0x28 TIF> >0x0D TIF> >0x21 TIF> >0x0D TIF> >0x28 TIF> >0x0D TIF> >0x28 TIF> >0x0D TIF> >0x28 TIF> >0x0D TIF> >0x21 TIF> >0x0D TIF> >0x21 TIF> >0x108 TIF>Found SWD-DP with ID 0x0BC11477 >0x0D TIF> >0x28 TIF> >0x0D TIF> >0x28 TIF> >0x0D TIF> >0x28 TIF> >0x0D TIF> >0x28 TIF> >0x0D TIF> >0x21 TIF> >0x0D TIF> >0x28 TIF> >0x0D TIF> >0x28 TIF> >0x0D TIF>
 >0x21 TIF> >0x0D TIF> >0x21 TIF> >0x0D TIF> >0x21 TIF>AP-IDR: 0x04770031, Type: AHB-AP >0x0D TIF> >0x28 TIF> >0x0D TIF> >0x28 TIF> >0x0D TIF> >0x28 TIF> >0x0D TIF> >0x21 TIF> >0x0D TIF> >0x21 TIF> >0x0D TIF> >0x28 TIF> >0x0D TIF> >0x21 TIF> >0x0D TIF> >0x21 TIF>Found Cortex-M0 r0p1, Little endian. -- CPU_ReadMem(4 bytes @ 0xE000EDF0) -- CPU_ReadMem(4 bytes @ 0xE0002000)FPUnit: 4 code (BP) slots and 0 literal slots -- CPU_ReadMem(4 bytes @ 0xE000EDFC) -- CPU_ReadMem(4 bytes @ 0xE0001000)
 -- CPU_WriteMem(4 bytes @ 0xE0001000)CoreSight components:ROMTbl 0 @ 41003000 -- CPU_ReadMem(16 bytes @ 0x41003000) -- CPU_ReadMem(16 bytes @ 0xE00FFFF0) -- CPU_ReadMem(16 bytes @ 0xE00FFFE0)ROMTbl 0 [0]: 9F0FC000, CID: B105100D, PID: 000BB4C0 ROM TableROMTbl 1 @ E00FF000 -- CPU_ReadMem(16 bytes @ 0xE00FF000) -- CPU_ReadMem(16 bytes @ 0xE000EFF0) -- CPU_ReadMem(16 bytes @ 0xE000EFE0)ROMTbl 1 [0]: FFF0F000, CID: B105E00D, PID: 000BB008 SCS -- CPU_ReadMem(16 bytes @ 0xE0001FF0)
 -- CPU_ReadMem(16 bytes @ 0xE0001FE0)ROMTbl 1 [1]: FFF02000, CID: B105E00D, PID: 000BB00A DWT -- CPU_ReadMem(16 bytes @ 0xE0002FF0) -- CPU_ReadMem(16 bytes @ 0xE0002FE0)ROMTbl 1 [2]: FFF03000, CID: B105E00D, PID: 000BB00B FPB -- CPU_ReadMem(16 bytes @ 0x41006FF0) -- CPU_ReadMem(16 bytes @ 0x41006FE0)ROMTbl 0 [1]: 00003000, CID: B105900D, PID: 001BB932 MTB-M0+  returns 0x00 (0023ms, 24208ms total)
T06CC 1186:216 JLINK_Halt()  returns 0x00 (0005ms, 24213ms total)
T06CC 1186:222 JLINK_JTAG_GetDeviceID(DeviceIndex = 0)  returns 0x00 (0000ms, 24213ms total)
T06CC 1186:222 JLINK_ReadMemU32(0x41002018, 0x0001 Items, ...) -- CPU_ReadMem(4 bytes @ 0x41002018) - Data: 00 02 01 10  returns 0x01 (0001ms, 24214ms total)
T06CC 1186:230 JLINK_BeginDownload(Flags = 0x00) (0000ms, 24214ms total)
T06CC 1186:230 JLINK_WriteMem(0x00000000, 0x4768 Bytes, ...) - Data: C8 2A 00 20 15 01 00 00 99 01 00 00 99 01 00 00 ...  returns 0x4768 (0000ms, 24214ms total)
T06CC 1186:230 JLINK_WriteMem(0x00004768, 0x085C Bytes, ...) - Data: 40 42 0F 00 23 20 01 00 7C 43 00 00 00 00 00 00 ...  returns 0x85C (0000ms, 24214ms total)
T1A58 1186:232 JLINK_IsHalted()  returns TRUE (0000ms, 24214ms total)
T1A58 1186:232 JLINK_GetMOEs(...) -- CPU_ReadMem(4 bytes @ 0xE000ED30)  returns 0x01 (0001ms, 24215ms total)
T1A58 1186:233 JLINK_ReadReg(R15 (PC))Old firmware which does not support pausing periodic actions during flash download -- CPU_ReadMem(4 bytes @ 0x41006004) -- -------------------------------------- -- Start of determining dirty areas in flash cache -- End of determining dirty areas -- Start of preparing flash programming -- Calculating RAM usage -- RAM usage = 3916 Bytes -- Preserving CPU registers -- Preparing memory -- Determining CPU clock frequency -- Preparing target -- Downloading RAMCode
 -- Checking target RAM -- Preparing RAMCode -- End of preparing flash programming -- CPU speed could not be measured. -- Start of comparing flash -- CRC check was estimated as fastest method -- Comparing range 0x0000 - 0x4FFF (80 Sectors, 20 KB), using multi-block CRC calculation -- CRC does not match for sectors 0-79 -- End of comparing flash -- Start of erasing sectors -- End of erasing sectors -- Start of flash programming -- Programming range 0x00000000 - 0x00004FFF (080 Sectors, 20 KB)
 -- End of flash programming -- 0x0000 - 0x4FFF (080 Sectors, 20 KB) -- Start of verifying flash -- Checksum calculation was estimated as fastest method -- Checksum is not supported by this flash bank. Switched to CRC method. -- End of verifying flash -- Start of restoring -- Restoring RAMCode -- Restore target -- Restore memory -- Restoring CPU registers -- End of restoring -- Flash programming performed for 1 range (20480 bytes)
 -- Total time needed: 0.495s (Prepare: 0.059s, Compare: 0.054s, Erase: 0.000s, Program: 0.353s, Verify: 0.020s, Restore: 0.006s)  returns 0x00000114 (0497ms, 24712ms total)
T06CC 1186:730 JLINK_EndDownload()  returns 0x00 (0000ms, 24712ms total)
T18FC 1186:834 JLINK_Halt()  returns 0x00 (0001ms, 24713ms total)
T18FC 1186:835 JLINK_ReadReg(R15 (PC))  returns 0x00000114 (0000ms, 24713ms total)
T18FC 1186:835 JLINK_ReadReg(R13 (SP))  returns 0x20002AC8 (0000ms, 24713ms total)
T18FC 1186:837 JLINK_ReadMemHW(0x00000114, 0x0004 Bytes, ...) -- CPU_ReadMem(4 bytes @ 0x00000114) - Data: 80 B5 82 B0  returns 0x00 (0001ms, 24714ms total)
T18FC 1186:838 JLINK_ReadReg(R0)  returns 0x00000005 (0000ms, 24714ms total)
T18FC 1186:838 JLINK_ReadReg(R1)  returns 0x00000074 (0000ms, 24714ms total)
T18FC 1186:838 JLINK_ReadReg(R2)  returns 0x00000001 (0000ms, 24714ms total)
T18FC 1186:838 JLINK_ReadReg(R3)  returns 0x00000002 (0000ms, 24714ms total)
T18FC 1186:838 JLINK_ReadReg(R4)  returns 0x000046B0 (0000ms, 24714ms total)
T18FC 1186:838 JLINK_ReadReg(R5)  returns 0x01010101 (0000ms, 24714ms total)
T18FC 1186:838 JLINK_ReadReg(R6)  returns 0x00000000 (0000ms, 24714ms total)
T18FC 1186:838 JLINK_ReadReg(R7)  returns 0x20000108 (0000ms, 24714ms total)
T18FC 1186:838 JLINK_ReadReg(R8)  returns 0x20000020 (0000ms, 24714ms total)
T18FC 1186:838 JLINK_ReadReg(R9)  returns 0x00004740 (0000ms, 24714ms total)
T18FC 1186:838 JLINK_ReadReg(R10)  returns 0x20000AFC (0000ms, 24714ms total)
T18FC 1186:838 JLINK_ReadReg(R11)  returns 0x20000B18 (0000ms, 24714ms total)
T18FC 1186:838 JLINK_ReadReg(R12)  returns 0x20002AD5 (0000ms, 24714ms total)
T18FC 1186:838 JLINK_ReadReg(R13 (SP))  returns 0x20002AC8 (0000ms, 24714ms total)
T18FC 1186:838 JLINK_ReadReg(R14)  returns 0xFFFFFFF9 (0000ms, 24714ms total)
T18FC 1186:838 JLINK_ReadReg(R15 (PC))  returns 0x00000114 (0000ms, 24714ms total)
T18FC 1186:838 JLINK_ReadReg(XPSR)  returns 0x21000000 (0000ms, 24714ms total)
T18FC 1186:838 JLINK_ReadReg(MSP)  returns 0x20002AC8 (0000ms, 24714ms total)
T18FC 1186:838 JLINK_ReadReg(PSP)  returns 0xC3F3FDFC (0000ms, 24714ms total)
T18FC 1186:838 JLINK_ReadReg(PRIMASK)  returns 0x00000000 (0000ms, 24714ms total)
T18FC 1186:838 JLINK_ReadReg(BASEPRI)  returns 0x00000000 (0000ms, 24714ms total)
T18FC 1186:838 JLINK_ReadReg(FAULTMASK)  returns 0x00000000 (0000ms, 24714ms total)
T18FC 1186:838 JLINK_ReadReg(CONTROL)  returns 0x00000000 (0000ms, 24714ms total)
T18FC 1186:839 JLINK_ReadMemHW(0x00000114, 0x0002 Bytes, ...) -- CPU_ReadMem(2 bytes @ 0x00000114) - Data: 80 B5  returns 0x00 (0000ms, 24714ms total)
T18FC 1186:926 JLINK_ReadReg(R0)  returns 0x00000005 (0000ms, 24714ms total)
T18FC 1186:926 JLINK_ReadReg(R1)  returns 0x00000074 (0000ms, 24714ms total)
T18FC 1186:926 JLINK_ReadReg(R2)  returns 0x00000001 (0000ms, 24714ms total)
T18FC 1186:926 JLINK_ReadReg(R3)  returns 0x00000002 (0000ms, 24714ms total)
T18FC 1186:926 JLINK_ReadReg(R4)  returns 0x000046B0 (0000ms, 24714ms total)
T18FC 1186:926 JLINK_ReadReg(R5)  returns 0x01010101 (0000ms, 24714ms total)
T18FC 1186:926 JLINK_ReadReg(R6)  returns 0x00000000 (0000ms, 24714ms total)
T18FC 1186:926 JLINK_ReadReg(R7)  returns 0x20000108 (0000ms, 24714ms total)
T18FC 1186:926 JLINK_ReadReg(R8)  returns 0x20000020 (0000ms, 24714ms total)
T18FC 1186:926 JLINK_ReadReg(R9)  returns 0x00004740 (0000ms, 24714ms total)
T18FC 1186:926 JLINK_ReadReg(R10)  returns 0x20000AFC (0000ms, 24714ms total)
T18FC 1186:926 JLINK_ReadReg(R11)  returns 0x20000B18 (0000ms, 24714ms total)
T18FC 1186:926 JLINK_ReadReg(R12)  returns 0x20002AD5 (0000ms, 24714ms total)
T18FC 1186:926 JLINK_ReadReg(R13 (SP))  returns 0x20002AC8 (0000ms, 24714ms total)
T18FC 1186:926 JLINK_ReadReg(R14)  returns 0xFFFFFFF9 (0000ms, 24714ms total)
T18FC 1186:926 JLINK_ReadReg(R15 (PC))  returns 0x00000114 (0000ms, 24714ms total)
T18FC 1186:926 JLINK_ReadReg(XPSR)  returns 0x21000000 (0000ms, 24714ms total)
T18FC 1186:926 JLINK_ReadReg(MSP)  returns 0x20002AC8 (0000ms, 24714ms total)
T18FC 1186:926 JLINK_ReadReg(PSP)  returns 0xC3F3FDFC (0000ms, 24714ms total)
T18FC 1186:926 JLINK_ReadReg(PRIMASK)  returns 0x00000000 (0000ms, 24714ms total)
T18FC 1186:926 JLINK_ReadReg(BASEPRI)  returns 0x00000000 (0000ms, 24714ms total)
T18FC 1186:926 JLINK_ReadReg(FAULTMASK)  returns 0x00000000 (0000ms, 24714ms total)
T18FC 1186:926 JLINK_ReadReg(CONTROL)  returns 0x00000000 (0000ms, 24714ms total)
T1A58 1186:930 JLINK_IsHalted()  returns TRUE (0000ms, 24714ms total)
T18FC 1186:936 JLINK_ReadMemHW(0x00000114, 0x0004 Bytes, ...) -- CPU_ReadMem(4 bytes @ 0x00000114) - Data: 80 B5 82 B0  returns 0x00 (0001ms, 24715ms total)
T18FC 1186:947 JLINK_Reset() -- CPU_ReadMem(4 bytes @ 0x200006DC) -- CPU_WriteMem(4 bytes @ 0x200006DC) -- CPU_ReadMem(4 bytes @ 0xE000EDFC) -- CPU_WriteMem(4 bytes @ 0xE000EDFC) -- CPU_WriteMem(4 bytes @ 0xE000ED0C) -- CPU is running -- CPU_ReadMem(4 bytes @ 0xE000EDF0) -- CPU is running -- CPU_ReadMem(4 bytes @ 0x41002100) -- CPU is running -- CPU_WriteMem(4 bytes @ 0x41002100) -- CPU is running -- CPU_ReadMem(4 bytes @ 0x41002100) -- CPU is running -- CPU_WriteMem(4 bytes @ 0xE000EDFC)
 -- CPU_WriteMem(4 bytes @ 0xE0002000) -- CPU_ReadMem(4 bytes @ 0xE000EDFC) -- CPU_ReadMem(4 bytes @ 0xE0001000) -- CPU_WriteMem(4 bytes @ 0xE0001000) (0014ms, 24729ms total)
T1A58 1186:961 JLINK_IsHalted()  returns TRUE (0000ms, 24729ms total)
T1A58 1186:961 JLINK_GetMOEs(...) -- CPU_ReadMem(4 bytes @ 0xE000ED30)  returns 0x01 (0001ms, 24730ms total)
T1A58 1186:962 JLINK_ReadReg(R15 (PC))  returns 0x00000114 (0000ms, 24730ms total)
T18FC 1186:971 JLINK_ReadReg(R15 (PC))  returns 0x00000114 (0000ms, 24730ms total)
T18FC 1186:971 JLINK_ReadReg(R13 (SP))  returns 0x20002AC8 (0000ms, 24730ms total)
T18FC 1186:971 JLINK_ReadMemHW(0x00000114, 0x0004 Bytes, ...) -- CPU_ReadMem(4 bytes @ 0x00000114) - Data: 80 B5 82 B0  returns 0x00 (0000ms, 24730ms total)
T18FC 1186:983 JLINK_ReadReg(R0)  returns 0x40001000 (0000ms, 24730ms total)
T18FC 1186:983 JLINK_ReadReg(R1)  returns 0x00000000 (0000ms, 24730ms total)
T18FC 1186:983 JLINK_ReadReg(R2)  returns 0x00000000 (0000ms, 24730ms total)
T18FC 1186:983 JLINK_ReadReg(R3)  returns 0xBC40F8E2 (0000ms, 24730ms total)
T18FC 1186:983 JLINK_ReadReg(R4)  returns 0x200006BC (0000ms, 24730ms total)
T18FC 1186:983 JLINK_ReadReg(R5)  returns 0x20000714 (0000ms, 24730ms total)
T18FC 1186:983 JLINK_ReadReg(R6)  returns 0x20000714 (0000ms, 24730ms total)
T18FC 1186:983 JLINK_ReadReg(R7)  returns 0x20000108 (0000ms, 24730ms total)
T18FC 1186:983 JLINK_ReadReg(R8)  returns 0x20000020 (0000ms, 24730ms total)
T18FC 1186:983 JLINK_ReadReg(R9)  returns 0x00004740 (0000ms, 24730ms total)
T18FC 1186:983 JLINK_ReadReg(R10)  returns 0x20000AFC (0000ms, 24730ms total)
T18FC 1186:983 JLINK_ReadReg(R11)  returns 0x20000B18 (0000ms, 24730ms total)
T18FC 1186:983 JLINK_ReadReg(R12)  returns 0x20000630 (0000ms, 24730ms total)
T18FC 1186:983 JLINK_ReadReg(R13 (SP))  returns 0x20002AC8 (0000ms, 24730ms total)
T18FC 1186:983 JLINK_ReadReg(R14)  returns 0x2000032F (0000ms, 24730ms total)
T18FC 1186:983 JLINK_ReadReg(R15 (PC))  returns 0x00000114 (0000ms, 24730ms total)
T18FC 1186:983 JLINK_ReadReg(XPSR)  returns 0x81000000 (0000ms, 24730ms total)
T18FC 1186:983 JLINK_ReadReg(MSP)  returns 0x20002AC8 (0000ms, 24730ms total)
T18FC 1186:983 JLINK_ReadReg(PSP)  returns 0xC3F3FDFC (0000ms, 24730ms total)
T18FC 1186:983 JLINK_ReadReg(PRIMASK)  returns 0x00000000 (0000ms, 24730ms total)
T18FC 1186:983 JLINK_ReadReg(BASEPRI)  returns 0x00000000 (0000ms, 24730ms total)
T18FC 1186:983 JLINK_ReadReg(FAULTMASK)  returns 0x00000000 (0000ms, 24730ms total)
T18FC 1186:983 JLINK_ReadReg(CONTROL)  returns 0x00000000 (0000ms, 24730ms total)
T18FC 1186:984 JLINK_ReadMem (0x2000032E, 0x0004 Bytes, ...) -- CPU_ReadMem(64 bytes @ 0x20000300) -- Updating C cache (64 bytes @ 0x20000300) -- Read from C cache (4 bytes @ 0x2000032E) - Data: 01 BD 70 B5  returns 0x00 (0001ms, 24731ms total)
T18FC 1186:985 JLINK_ReadMem (0x20000020, 0x0002 Bytes, ...) -- CPU_ReadMem(64 bytes @ 0x20000000) -- Updating C cache (64 bytes @ 0x20000000) -- Read from C cache (2 bytes @ 0x20000020) - Data: FA D1  returns 0x00 (0002ms, 24733ms total)
T18FC 1186:987 JLINK_ReadMem (0x2000032E, 0x0004 Bytes, ...) -- Read from C cache (4 bytes @ 0x2000032E) - Data: 01 BD 70 B5  returns 0x00 (0000ms, 24733ms total)
T18FC 1186:987 JLINK_ReadMem (0x20000020, 0x0002 Bytes, ...) -- Read from C cache (2 bytes @ 0x20000020) - Data: FA D1  returns 0x00 (0000ms, 24733ms total)
T18FC 1187:008 JLINK_ReadMemHW(0x000016FC, 0x0001 Bytes, ...) -- CPU_ReadMem(1 bytes @ 0x000016FC) - Data: F0  returns 0x00 (0001ms, 24734ms total)
T18FC 1187:060 JLINK_ReadReg(R15 (PC))  returns 0x00000114 (0000ms, 24734ms total)
T18FC 1187:060 JLINK_GetNumBPUnits(Type = 0xFFFFFF02)  returns 0x04 (0000ms, 24734ms total)
T18FC 1187:060 JLINK_SetBPEx(Addr = 0x000016FC, Type = 0xFFFFFFF2)  returns 0x00000001 (0000ms, 24734ms total)
T18FC 1187:060 JLINK_GetBPInfo(BPHandle = 1)  returns 0x00 (0000ms, 24734ms total)
T18FC 1187:060 JLINK_Go() -- CPU_WriteMem(4 bytes @ 0xE0002000) -- CPU_ReadMem(4 bytes @ 0xE0001000) -- CPU_WriteMem(4 bytes @ 0xE000ED30) -- CPU_WriteMem(4 bytes @ 0xE0001000) -- CPU_WriteMem(4 bytes @ 0xE0002008) -- CPU_WriteMem(4 bytes @ 0xE000200C) -- CPU_WriteMem(4 bytes @ 0xE0002010) -- CPU_WriteMem(4 bytes @ 0xE0002014) -- CPU_WriteMem(4 bytes @ 0xE0001004) (0006ms, 24740ms total)
T1A58 1187:066 JLINK_IsHalted() -- CPU is running -- CPU_ReadMem(4 bytes @ 0x41002100)  returns FALSE (0001ms, 24741ms total)
T1A58 1187:087 JLINK_IsHalted()  returns TRUE (0005ms, 24745ms total)
T1A58 1187:092 JLINK_GetMOEs(...) -- CPU_ReadMem(4 bytes @ 0xE000ED30)  returns 0x01 (0001ms, 24741ms total)
T1A58 1187:093 JLINK_ReadReg(R15 (PC))  returns 0x000016FC (0000ms, 24741ms total)
T1A58 1187:093 JLINK_WriteU32(0xE000EDFC, 0x01000000) -- CPU_WriteMem(4 bytes @ 0xE000EDFC)  returns 0x00 (0000ms, 24741ms total)
T1A58 1187:093 JLINK_ReadMem (0xE0001000, 0x0004 Bytes, ...) -- CPU_ReadMem(4 bytes @ 0xE0001000) - Data: 00 00 00 20  returns 0x00 (0001ms, 24742ms total)
T1A58 1187:094 JLINK_WriteU32(0xE0001000, 0x20000001)  returns 0x00 (0000ms, 24742ms total)
T1A58 1187:094 JLINK_WriteU32(0xE0001028, 0x00000100)  returns 0x00 (0000ms, 24742ms total)
T1A58 1187:094 JLINK_ReadMem (0xE0001028, 0x0004 Bytes, ...) -- CPU_WriteMem(4 bytes @ 0xE0001028) -- CPU_ReadMem(4 bytes @ 0xE0001028) - Data: 00 00 00 00  returns 0x00 (0001ms, 24743ms total)
T1A58 1187:095 JLINK_WriteU32(0xE0001024, 0x0000001F)  returns 0x00 (0000ms, 24743ms total)
T1A58 1187:095 JLINK_ReadMem (0xE0001024, 0x0004 Bytes, ...) -- CPU_WriteMem(4 bytes @ 0xE0001024) -- CPU_ReadMem(4 bytes @ 0xE0001024) - Data: 1F 00 00 00  returns 0x00 (0001ms, 24744ms total)
T1A58 1187:096 JLINK_WriteU32(0xE0001038, 0x00000100)  returns 0x00 (0000ms, 24744ms total)
T1A58 1187:096 JLINK_ReadMem (0xE0001038, 0x0004 Bytes, ...) -- CPU_WriteMem(4 bytes @ 0xE0001038) -- CPU_ReadMem(4 bytes @ 0xE0001038) - Data: 00 00 00 00  returns 0x00 (0001ms, 24745ms total)
T1A58 1187:097 JLINK_WriteU32(0xE0001034, 0x0000001F)  returns 0x00 (0000ms, 24745ms total)
T1A58 1187:097 JLINK_ReadMem (0xE0001034, 0x0004 Bytes, ...) -- CPU_WriteMem(4 bytes @ 0xE0001034) -- CPU_ReadMem(4 bytes @ 0xE0001034) - Data: 1F 00 00 00  returns 0x00 (0002ms, 24747ms total)
T1A58 1187:099 JLINK_WriteU32(0xE0001020, 0x00000000)  returns 0x00 (0000ms, 24747ms total)
T1A58 1187:099 JLINK_WriteU32(0xE0001024, 0x00000000)  returns 0x00 (0000ms, 24747ms total)
T1A58 1187:099 JLINK_WriteU32(0xE0001028, 0x00000000)  returns 0x00 (0000ms, 24747ms total)
T1A58 1187:099 JLINK_WriteU32(0xE0001030, 0x00000000)  returns 0x00 (0000ms, 24747ms total)
T1A58 1187:099 JLINK_WriteU32(0xE0001034, 0x00000000)  returns 0x00 (0000ms, 24747ms total)
T1A58 1187:099 JLINK_WriteU32(0xE0001038, 0x00000000)  returns 0x00 (0000ms, 24747ms total)
T1A58 1187:099 JLINK_GetBPInfo(BPHandle = 1)  returns 0x00 (0000ms, 24747ms total)
T1A58 1187:099 JLINK_ClrBPEx(BPHandle = 0x00000001)  returns 0x00 (0000ms, 24747ms total)
T18FC 1187:107 JLINK_ReadReg(R15 (PC))  returns 0x000016FC (0000ms, 24747ms total)
T18FC 1187:107 JLINK_ReadReg(R13 (SP))  returns 0x20002AB8 (0000ms, 24747ms total)
T18FC 1187:107 JLINK_ReadMemHW(0x000016FC, 0x0004 Bytes, ...) -- CPU_ReadMem(4 bytes @ 0x000016FC) - Data: F0 B5 8D B0  returns 0x00 (0001ms, 24748ms total)
T18FC 1187:119 JLINK_ReadReg(R15 (PC))  returns 0x000016FC (0000ms, 24748ms total)
T18FC 1187:119 JLINK_Go() -- CPU_WriteMem(4 bytes @ 0xE0001000) -- CPU_ReadMem(4 bytes @ 0xE0001000) -- CPU_WriteMem(4 bytes @ 0xE000ED30) -- CPU_WriteMem(4 bytes @ 0xE0001000) -- CPU_WriteMem(4 bytes @ 0xE0001020) -- CPU_WriteMem(4 bytes @ 0xE0001030) -- CPU_WriteMem(4 bytes @ 0xE0001024) -- CPU_WriteMem(4 bytes @ 0xE0001034) -- CPU_WriteMem(4 bytes @ 0xE0001028) -- CPU_WriteMem(4 bytes @ 0xE0001038) -- CPU_WriteMem(4 bytes @ 0xE0002008) (0006ms, 24754ms total)
T1A58 1187:125 JLINK_IsHalted() -- CPU is running -- CPU_ReadMem(4 bytes @ 0x41002100)  returns FALSE (0001ms, 24755ms total)
T1A58 1187:166 JLINK_IsHalted() -- CPU is running -- CPU_ReadMem(4 bytes @ 0x41002100)  returns FALSE (0001ms, 24755ms total)
T1A58 1187:328 JLINK_IsHalted()  returns TRUE (0005ms, 24759ms total)
T1A58 1187:333 JLINK_GetMOEs(...) -- CPU_ReadMem(4 bytes @ 0xE000ED30)  returns 0x01 (0000ms, 24754ms total)
T1A58 1187:333 JLINK_ReadReg(R15 (PC))  returns 0xFFFFFFFE (0000ms, 24754ms total)
T18FC 1187:338 JLINK_ReadReg(R15 (PC))  returns 0xFFFFFFFE (0000ms, 24754ms total)
T18FC 1187:338 JLINK_ReadReg(R13 (SP))  returns 0x1FFFFFB8 (0000ms, 24754ms total)
T06CC 1187:416 JLINK_ReadMemHW(0x0000000E, 0x0078 Bytes, ...) -- CPU_ReadMem(120 bytes @ 0x0000000E) - Data: 00 00 00 00 00 00 00 00 00 00 00 00 00 00 00 00 ...  returns 0x00 (0003ms, 24757ms total)
T06CC 1187:422 JLINK_ReadMemHW(0x0000004A, 0x0078 Bytes, ...) -- CPU_ReadMem(120 bytes @ 0x0000004A) - Data: 00 00 99 01 00 00 29 18 00 00 99 01 00 00 99 01 ...  returns 0x00 (0003ms, 24760ms total)
T06CC 1187:474 JLINK_ReadMemHW(0x00000000, 0x0190 Bytes, ...) -- CPU_ReadMem(400 bytes @ 0x00000000) - Data: C8 2A 00 20 15 01 00 00 99 01 00 00 99 01 00 00 ...  returns 0x00 (0005ms, 24765ms total)
T1A58 1187:534 JLINK_IsHalted()  returns TRUE (0000ms, 24765ms total)
T06CC 1187:535 JLINK_ReadMemHW(0x00000190, 0x0050 Bytes, ...) -- CPU_ReadMem(80 bytes @ 0x00000190) - Data: 35 29 00 00 FD 16 00 00 80 B5 00 AF FE E7 C0 46 ...  returns 0x00 (0001ms, 24766ms total)
T06CC 1187:543 JLINK_ReadMemHW(0x000001E0, 0x0078 Bytes, ...) -- CPU_ReadMem(120 bytes @ 0x000001E0) - Data: 00 AF 78 60 01 23 5B 42 18 00 BD 46 02 B0 80 BD ...  returns 0x00 (0002ms, 24768ms total)
T1A58 1187:734 JLINK_IsHalted()  returns TRUE (0000ms, 24768ms total)
